
**** 11/22/11 16:22:20 ******** PSpice Lite (June 2009) ******* ID# 10813 ****

 ** Profile: "SCHEMATIC1-bias"  [ D:\PM\DOCUMENTS PM\COURS\_ANALOGIQUE\ELEC-H-402 2011-2012\LABOS\Labo4 MOS2\Ampli Drain Commun\ampli


 ****     CIRCUIT DESCRIPTION


******************************************************************************




** Creating circuit file "bias.cir" 
** WARNING: THIS AUTOMATICALLY GENERATED FILE MAY BE OVERWRITTEN BY SUBSEQUENT SIMULATIONS

*Libraries: 
* Profile Libraries :
* Local Libraries :
.LIB "D:/pm/Documents PM/Cours/_Analogique/ELEC-H-402 2011-2012/Labos/Labo H402 PSpice Lib/small_signal.lib" 
* From [PSPICE NETLIST] section of E:\OrCAD_16.3_Demo\tools\PSpice\PSpice.ini file:
.lib "nomd.lib" 

*Analysis directives: 
.PROBE V(alias(*)) I(alias(*)) W(alias(*)) D(alias(*)) NOISE(alias(*)) 
.INC "..\SCHEMATIC1.net" 



**** INCLUDING SCHEMATIC1.net ****
* source AMPLIDRAINCOMMUN
V_V1         VDD 0 5V
V_VGQ         N15987 0 4.14V
R_RS         0 N14721  {RSval} TC=0,0 
V_Vi         VIN N15987  AC 1V
+SIN 0 {DeltaVin} 1kHz 0 0 0
C_CL         N14721 VOUT  180u  TC=0,0 
R_RL         0 VOUT  {RLval} TC=0,0 
X_M1         VDD VIN N14721 BSS87_L1 PARAMS:    
.PARAM  dvin=1 rsval=10 deltavin=0 rlval=20

**** RESUMING bias.cir ****
.END

**** 11/22/11 16:22:20 ******** PSpice Lite (June 2009) ******* ID# 10813 ****

 ** Profile: "SCHEMATIC1-bias"  [ D:\PM\DOCUMENTS PM\COURS\_ANALOGIQUE\ELEC-H-402 2011-2012\LABOS\Labo4 MOS2\Ampli Drain Commun\ampli


 ****     SMALL SIGNAL BIAS SOLUTION       TEMPERATURE =   27.000 DEG C


******************************************************************************



 NODE   VOLTAGE     NODE   VOLTAGE     NODE   VOLTAGE     NODE   VOLTAGE


(  VDD)    5.0000  (  VIN)    4.1400  ( VOUT)    0.0000  (N14721)    1.4997     

(N15987)    4.1400 (X_M1.g)    4.1400 (X_M1.s)    1.5121 (X_M1.w)-27.00E-18     

(X_M1.d1)    5.0000                   (X_M1.g1)    4.1400                       

(X_M1.s1)    1.4997                   (X_M1.Tj)   27.0000                       

(X_M1.X1.a) 105.7E-12                 (X_M1.X1.b) 6.992E-09                     

(X_M1.X1.c) 105.7E-12                 (X_M1.X1.d)    4.4479                     

(X_M1.X1.e) 105.7E-06                 (X_M1.X1.f) 105.7E-12                     

(X_M1.X1.d1)    5.0000                (X_M1.X1.d2)    5.0000                    

(X_M1.X1.d3)    5.0000                (X_M1.X1.ox)    4.4479                    

(X_M1.X1.ox1)    4.4479               (X_M1.X1.edep)    3.7956              




    VOLTAGE SOURCE CURRENTS
    NAME         CURRENT

    V_V1        -1.500E-01
    V_VGQ       -2.628E-09
    V_Vi        -2.628E-09
    X_M1.X1.V_sense   1.500E-01
    X_M1.X1.V_sense2   6.992E-09
    X_M1.X1.V_sense3   1.057E-10

    TOTAL POWER DISSIPATION   7.50E-01  WATTS



          JOB CONCLUDED

**** 11/22/11 16:22:20 ******** PSpice Lite (June 2009) ******* ID# 10813 ****

 ** Profile: "SCHEMATIC1-bias"  [ D:\PM\DOCUMENTS PM\COURS\_ANALOGIQUE\ELEC-H-402 2011-2012\LABOS\Labo4 MOS2\Ampli Drain Commun\ampli


 ****     JOB STATISTICS SUMMARY


******************************************************************************



  Total job time (using Solver 1)   =         .13
