
**** 04/21/23 18:17:07 ******* PSpice Lite (March 2016) ******* ID# 10813 ****

 ** Profile: "SCHEMATIC1-dc"  [ D:\Polytech\MA1 2022-2023 ULB\Q2\ELEC-H402 -- Analog Electronics\Labs\Labo 4 - projets\Ampli SC CMOS\


 ****     CIRCUIT DESCRIPTION


******************************************************************************




** Creating circuit file "dc.cir" 
** WARNING: THIS AUTOMATICALLY GENERATED FILE MAY BE OVERWRITTEN BY SUBSEQUENT SIMULATIONS

*Libraries: 
* Profile Libraries :
* Local Libraries :
.LIB "D:/Polytech/MA1 2022-2023 ULB/Q2/ELEC-H402 -- Analog Electronics/Labs/Libraries for ELEC-H402/Libraries for ELEC-H402/SMALL_S"
+ "IGNAL.lib" 
.LIB "D:/Polytech/MA1 2022-2023 ULB/Q2/ELEC-H402 -- Analog Electronics/Labs/Libraries for ELEC-H402/Libraries for ELEC-H402/SEDRA_L"
+ "IB.lib" 
.LIB "D:/Polytech/MA1 2022-2023 ULB/Q2/ELEC-H402 -- Analog Electronics/Labs/Libraries for ELEC-H402/Libraries for ELEC-H402/ELEC-H4"
+ "02.lib" 
.LIB "D:/Polytech/MA1 2022-2023 ULB/Q2/ELEC-H402 -- Analog Electronics/Labs/Libraries for ELEC-H402/Libraries for ELEC-H402/ALD.lib"
+ "" 
* From [PSPICE NETLIST] section of C:\Users\thoma\AppData\Roaming\SPB_Data\cdssetup\OrCAD_PSpice\17.2.0\PSpice.ini file:

*Analysis directives: 
.AC DEC 100 10 1G
.STEP LIN PARAM RD1 1k 50k 500 
.OPTIONS ADVCONV
.PROBE64 V(alias(*)) I(alias(*)) W(alias(*)) D(alias(*)) NOISE(alias(*)) 
.INC "..\SCHEMATIC1.net" 



**** INCLUDING SCHEMATIC1.net ****
* source AMPLI SC CMOS
V_V1         VDD 0 5
V_V2         0 VSS 5
R_RD1         N23093 VDD  {RD1} TC=0,0 
M_M1         N23093 N23093 VSS VSS ncg  
+ L=7.8E-6  
+ W=0.069E-3  
+ AD=0.161E-8  
+ AS=0.603E-8   
+ PS=0.478E-3  
+ NRD=0.3  
+ NRS=1  
+ NRG=25  
+ NRB=35 
M_M2         OUT N23093 VSS VSS ncg  
+ L=7.8E-6  
+ W=0.069E-3  
+ AD=0.161E-8  
+ AS=0.603E-8   
+ PS=0.478E-3  
+ NRD=0.3  
+ NRS=1  
+ NRG=25  
+ NRB=35 
M_M3         OUT IN VDD VDD pcg  
+ L=7.8E-6  
+ W=0.138E-3  
+ AD=0.161E-8  
+ AS=0.603E-8   
+ PS=0.478E-6  
+ NRD=0.3  
+ NRS=1  
+ NRG=25  
+ NRB=35 
V_V3         IN N276751 DC 0Vdc AC 0Vac 
V_V4         N276751 0 {VG}
.PARAM  rd1=33.6k vg=2.74

**** RESUMING dc.cir ****
.END

**** 04/21/23 18:17:07 ******* PSpice Lite (March 2016) ******* ID# 10813 ****

 ** Profile: "SCHEMATIC1-dc"  [ D:\Polytech\MA1 2022-2023 ULB\Q2\ELEC-H402 -- Analog Electronics\Labs\Labo 4 - projets\Ampli SC CMOS\


 ****     MOSFET MODEL PARAMETERS


******************************************************************************




               ncg             pcg             
               NMOS            PMOS            
       LEVEL    2               2            
         TPG                   -1            
           L  100.000000E-06  100.000000E-06 
           W  100.000000E-06  100.000000E-06 
          LD    1.600000E-06  960.000000E-09 
          WD    1.050000E-06  500.000000E-09 
         VTO     .75            -.74         
          KP   40.809880E-06   16.323950E-06 
       GAMMA    1.09             .58         
         PHI     .7              .7          
      LAMBDA    0               0            
         RSH   10              90            
          IS   10.000000E-15   10.000000E-15 
          JS   20.000000E-06   20.000000E-06 
          PB     .9              .9          
        PBSW     .9              .9          
          CJ  390.000000E-06  180.000000E-06 
        CJSW  264.000000E-12  322.000000E-12 
          MJ                     .57         
        MJSW     .18                         
        CGSO  940.000000E-12  310.000000E-12 
        CGDO  590.000000E-12  390.000000E-12 
        CGBO  138.000000E-12  138.000000E-12 
        NSUB   10.000000E+15   10.000000E+15 
         NSS   70.000000E+09  100.000000E+09 
         NFS  117.000000E+09  106.000000E+09 
         TOX   55.000000E-09   55.000000E-09 
          XJ    2.000000E-06    1.200000E-06 
          UO  650             260            
       UCRIT    7.000000E+03   10.000000E+03 
        UEXP     .1              .16         
        VMAX  160.000000E+03  300.000000E+03 
        NEFF   10                            
         XQC     .42             .42         
          KF   75.000000E-30   75.000000E-30 
      DIOMOD    1               1            
         VFB    0               0            
        LETA    0               0            
        WETA    0               0            
          U0    0               0            
        TEMP    0               0            
         VDD    5               5            
       XPART    0               0            


**** 04/21/23 18:17:07 ******* PSpice Lite (March 2016) ******* ID# 10813 ****

 ** Profile: "SCHEMATIC1-dc"  [ D:\Polytech\MA1 2022-2023 ULB\Q2\ELEC-H402 -- Analog Electronics\Labs\Labo 4 - projets\Ampli SC CMOS\


 ****     SMALL SIGNAL BIAS SOLUTION       TEMPERATURE =   27.000 DEG C

 ****     CURRENT STEP                     PARAM RD1 =    1.0000E+03


******************************************************************************



 NODE   VOLTAGE     NODE   VOLTAGE     NODE   VOLTAGE     NODE   VOLTAGE


(   IN)    2.7400  (  OUT)   -4.8654  (  VDD)    5.0000  (  VSS)   -5.0000      

(N23093)     .9063 (N276751)    2.7400                   




    VOLTAGE SOURCE CURRENTS
    NAME         CURRENT

    V_V1        -4.365E-03
    V_V2        -4.365E-03
    V_V3         0.000E+00
    V_V4         0.000E+00

    TOTAL POWER DISSIPATION   4.37E-02  WATTS


WARNING(ORPSIM-15193): No AC sources -- AC Sweep ignored

**** 04/21/23 18:17:07 ******* PSpice Lite (March 2016) ******* ID# 10813 ****

 ** Profile: "SCHEMATIC1-dc"  [ D:\Polytech\MA1 2022-2023 ULB\Q2\ELEC-H402 -- Analog Electronics\Labs\Labo 4 - projets\Ampli SC CMOS\


 ****     SMALL SIGNAL BIAS SOLUTION       TEMPERATURE =   27.000 DEG C

 ****     CURRENT STEP                     PARAM RD1 =    1.5000E+03


******************************************************************************



 NODE   VOLTAGE     NODE   VOLTAGE     NODE   VOLTAGE     NODE   VOLTAGE


(   IN)    2.7400  (  OUT)   -4.8479  (  VDD)    5.0000  (  VSS)   -5.0000      

(N23093)     .2582 (N276751)    2.7400                   




    VOLTAGE SOURCE CURRENTS
    NAME         CURRENT

    V_V1        -3.433E-03
    V_V2        -3.433E-03
    V_V3         0.000E+00
    V_V4         0.000E+00

    TOTAL POWER DISSIPATION   3.43E-02  WATTS


WARNING(ORPSIM-15193): No AC sources -- AC Sweep ignored

**** 04/21/23 18:17:07 ******* PSpice Lite (March 2016) ******* ID# 10813 ****

 ** Profile: "SCHEMATIC1-dc"  [ D:\Polytech\MA1 2022-2023 ULB\Q2\ELEC-H402 -- Analog Electronics\Labs\Labo 4 - projets\Ampli SC CMOS\


 ****     SMALL SIGNAL BIAS SOLUTION       TEMPERATURE =   27.000 DEG C

 ****     CURRENT STEP                     PARAM RD1 =    2.0000E+03


******************************************************************************



 NODE   VOLTAGE     NODE   VOLTAGE     NODE   VOLTAGE     NODE   VOLTAGE


(   IN)    2.7400  (  OUT)   -4.8328  (  VDD)    5.0000  (  VSS)   -5.0000      

(N23093)    -.1839 (N276751)    2.7400                   




    VOLTAGE SOURCE CURRENTS
    NAME         CURRENT

    V_V1        -2.863E-03
    V_V2        -2.863E-03
    V_V3         0.000E+00
    V_V4         0.000E+00

    TOTAL POWER DISSIPATION   2.86E-02  WATTS


WARNING(ORPSIM-15193): No AC sources -- AC Sweep ignored

**** 04/21/23 18:17:07 ******* PSpice Lite (March 2016) ******* ID# 10813 ****

 ** Profile: "SCHEMATIC1-dc"  [ D:\Polytech\MA1 2022-2023 ULB\Q2\ELEC-H402 -- Analog Electronics\Labs\Labo 4 - projets\Ampli SC CMOS\


 ****     SMALL SIGNAL BIAS SOLUTION       TEMPERATURE =   27.000 DEG C

 ****     CURRENT STEP                     PARAM RD1 =    2.5000E+03


******************************************************************************



 NODE   VOLTAGE     NODE   VOLTAGE     NODE   VOLTAGE     NODE   VOLTAGE


(   IN)    2.7400  (  OUT)   -4.8191  (  VDD)    5.0000  (  VSS)   -5.0000      

(N23093)    -.5121 (N276751)    2.7400                   




    VOLTAGE SOURCE CURRENTS
    NAME         CURRENT

    V_V1        -2.476E-03
    V_V2        -2.476E-03
    V_V3         0.000E+00
    V_V4         0.000E+00

    TOTAL POWER DISSIPATION   2.48E-02  WATTS


WARNING(ORPSIM-15193): No AC sources -- AC Sweep ignored

**** 04/21/23 18:17:07 ******* PSpice Lite (March 2016) ******* ID# 10813 ****

 ** Profile: "SCHEMATIC1-dc"  [ D:\Polytech\MA1 2022-2023 ULB\Q2\ELEC-H402 -- Analog Electronics\Labs\Labo 4 - projets\Ampli SC CMOS\


 ****     SMALL SIGNAL BIAS SOLUTION       TEMPERATURE =   27.000 DEG C

 ****     CURRENT STEP                     PARAM RD1 =    3.0000E+03


******************************************************************************



 NODE   VOLTAGE     NODE   VOLTAGE     NODE   VOLTAGE     NODE   VOLTAGE


(   IN)    2.7400  (  OUT)   -4.8065  (  VDD)    5.0000  (  VSS)   -5.0000      

(N23093)    -.7690 (N276751)    2.7400                   




    VOLTAGE SOURCE CURRENTS
    NAME         CURRENT

    V_V1        -2.194E-03
    V_V2        -2.194E-03
    V_V3         0.000E+00
    V_V4         0.000E+00

    TOTAL POWER DISSIPATION   2.19E-02  WATTS


WARNING(ORPSIM-15193): No AC sources -- AC Sweep ignored

**** 04/21/23 18:17:07 ******* PSpice Lite (March 2016) ******* ID# 10813 ****

 ** Profile: "SCHEMATIC1-dc"  [ D:\Polytech\MA1 2022-2023 ULB\Q2\ELEC-H402 -- Analog Electronics\Labs\Labo 4 - projets\Ampli SC CMOS\


 ****     SMALL SIGNAL BIAS SOLUTION       TEMPERATURE =   27.000 DEG C

 ****     CURRENT STEP                     PARAM RD1 =    3.5000E+03


******************************************************************************



 NODE   VOLTAGE     NODE   VOLTAGE     NODE   VOLTAGE     NODE   VOLTAGE


(   IN)    2.7400  (  OUT)   -4.7947  (  VDD)    5.0000  (  VSS)   -5.0000      

(N23093)    -.9778 (N276751)    2.7400                   




    VOLTAGE SOURCE CURRENTS
    NAME         CURRENT

    V_V1        -1.979E-03
    V_V2        -1.979E-03
    V_V3         0.000E+00
    V_V4         0.000E+00

    TOTAL POWER DISSIPATION   1.98E-02  WATTS


WARNING(ORPSIM-15193): No AC sources -- AC Sweep ignored

**** 04/21/23 18:17:07 ******* PSpice Lite (March 2016) ******* ID# 10813 ****

 ** Profile: "SCHEMATIC1-dc"  [ D:\Polytech\MA1 2022-2023 ULB\Q2\ELEC-H402 -- Analog Electronics\Labs\Labo 4 - projets\Ampli SC CMOS\


 ****     SMALL SIGNAL BIAS SOLUTION       TEMPERATURE =   27.000 DEG C

 ****     CURRENT STEP                     PARAM RD1 =    4.0000E+03


******************************************************************************



 NODE   VOLTAGE     NODE   VOLTAGE     NODE   VOLTAGE     NODE   VOLTAGE


(   IN)    2.7400  (  OUT)   -4.7836  (  VDD)    5.0000  (  VSS)   -5.0000      

(N23093)   -1.1520 (N276751)    2.7400                   




    VOLTAGE SOURCE CURRENTS
    NAME         CURRENT

    V_V1        -1.809E-03
    V_V2        -1.809E-03
    V_V3         0.000E+00
    V_V4         0.000E+00

    TOTAL POWER DISSIPATION   1.81E-02  WATTS


WARNING(ORPSIM-15193): No AC sources -- AC Sweep ignored

**** 04/21/23 18:17:07 ******* PSpice Lite (March 2016) ******* ID# 10813 ****

 ** Profile: "SCHEMATIC1-dc"  [ D:\Polytech\MA1 2022-2023 ULB\Q2\ELEC-H402 -- Analog Electronics\Labs\Labo 4 - projets\Ampli SC CMOS\


 ****     SMALL SIGNAL BIAS SOLUTION       TEMPERATURE =   27.000 DEG C

 ****     CURRENT STEP                     PARAM RD1 =    4.5000E+03


******************************************************************************



 NODE   VOLTAGE     NODE   VOLTAGE     NODE   VOLTAGE     NODE   VOLTAGE


(   IN)    2.7400  (  OUT)   -4.7729  (  VDD)    5.0000  (  VSS)   -5.0000      

(N23093)   -1.3004 (N276751)    2.7400                   




    VOLTAGE SOURCE CURRENTS
    NAME         CURRENT

    V_V1        -1.671E-03
    V_V2        -1.671E-03
    V_V3         0.000E+00
    V_V4         0.000E+00

    TOTAL POWER DISSIPATION   1.67E-02  WATTS


WARNING(ORPSIM-15193): No AC sources -- AC Sweep ignored

**** 04/21/23 18:17:07 ******* PSpice Lite (March 2016) ******* ID# 10813 ****

 ** Profile: "SCHEMATIC1-dc"  [ D:\Polytech\MA1 2022-2023 ULB\Q2\ELEC-H402 -- Analog Electronics\Labs\Labo 4 - projets\Ampli SC CMOS\


 ****     SMALL SIGNAL BIAS SOLUTION       TEMPERATURE =   27.000 DEG C

 ****     CURRENT STEP                     PARAM RD1 =    5.0000E+03


******************************************************************************



 NODE   VOLTAGE     NODE   VOLTAGE     NODE   VOLTAGE     NODE   VOLTAGE


(   IN)    2.7400  (  OUT)   -4.7627  (  VDD)    5.0000  (  VSS)   -5.0000      

(N23093)   -1.4289 (N276751)    2.7400                   




    VOLTAGE SOURCE CURRENTS
    NAME         CURRENT

    V_V1        -1.557E-03
    V_V2        -1.557E-03
    V_V3         0.000E+00
    V_V4         0.000E+00

    TOTAL POWER DISSIPATION   1.56E-02  WATTS


WARNING(ORPSIM-15193): No AC sources -- AC Sweep ignored

**** 04/21/23 18:17:07 ******* PSpice Lite (March 2016) ******* ID# 10813 ****

 ** Profile: "SCHEMATIC1-dc"  [ D:\Polytech\MA1 2022-2023 ULB\Q2\ELEC-H402 -- Analog Electronics\Labs\Labo 4 - projets\Ampli SC CMOS\


 ****     SMALL SIGNAL BIAS SOLUTION       TEMPERATURE =   27.000 DEG C

 ****     CURRENT STEP                     PARAM RD1 =    5.5000E+03


******************************************************************************



 NODE   VOLTAGE     NODE   VOLTAGE     NODE   VOLTAGE     NODE   VOLTAGE


(   IN)    2.7400  (  OUT)   -4.7527  (  VDD)    5.0000  (  VSS)   -5.0000      

(N23093)   -1.5417 (N276751)    2.7400                   




    VOLTAGE SOURCE CURRENTS
    NAME         CURRENT

    V_V1        -1.461E-03
    V_V2        -1.461E-03
    V_V3         0.000E+00
    V_V4         0.000E+00

    TOTAL POWER DISSIPATION   1.46E-02  WATTS


WARNING(ORPSIM-15193): No AC sources -- AC Sweep ignored

**** 04/21/23 18:17:07 ******* PSpice Lite (March 2016) ******* ID# 10813 ****

 ** Profile: "SCHEMATIC1-dc"  [ D:\Polytech\MA1 2022-2023 ULB\Q2\ELEC-H402 -- Analog Electronics\Labs\Labo 4 - projets\Ampli SC CMOS\


 ****     SMALL SIGNAL BIAS SOLUTION       TEMPERATURE =   27.000 DEG C

 ****     CURRENT STEP                     PARAM RD1 =    6.0000E+03


******************************************************************************



 NODE   VOLTAGE     NODE   VOLTAGE     NODE   VOLTAGE     NODE   VOLTAGE


(   IN)    2.7400  (  OUT)   -4.7431  (  VDD)    5.0000  (  VSS)   -5.0000      

(N23093)   -1.6418 (N276751)    2.7400                   




    VOLTAGE SOURCE CURRENTS
    NAME         CURRENT

    V_V1        -1.378E-03
    V_V2        -1.378E-03
    V_V3         0.000E+00
    V_V4         0.000E+00

    TOTAL POWER DISSIPATION   1.38E-02  WATTS


WARNING(ORPSIM-15193): No AC sources -- AC Sweep ignored

**** 04/21/23 18:17:07 ******* PSpice Lite (March 2016) ******* ID# 10813 ****

 ** Profile: "SCHEMATIC1-dc"  [ D:\Polytech\MA1 2022-2023 ULB\Q2\ELEC-H402 -- Analog Electronics\Labs\Labo 4 - projets\Ampli SC CMOS\


 ****     SMALL SIGNAL BIAS SOLUTION       TEMPERATURE =   27.000 DEG C

 ****     CURRENT STEP                     PARAM RD1 =    6.5000E+03


******************************************************************************



 NODE   VOLTAGE     NODE   VOLTAGE     NODE   VOLTAGE     NODE   VOLTAGE


(   IN)    2.7400  (  OUT)   -4.7337  (  VDD)    5.0000  (  VSS)   -5.0000      

(N23093)   -1.7315 (N276751)    2.7400                   




    VOLTAGE SOURCE CURRENTS
    NAME         CURRENT

    V_V1        -1.307E-03
    V_V2        -1.307E-03
    V_V3         0.000E+00
    V_V4         0.000E+00

    TOTAL POWER DISSIPATION   1.31E-02  WATTS


WARNING(ORPSIM-15193): No AC sources -- AC Sweep ignored

**** 04/21/23 18:17:07 ******* PSpice Lite (March 2016) ******* ID# 10813 ****

 ** Profile: "SCHEMATIC1-dc"  [ D:\Polytech\MA1 2022-2023 ULB\Q2\ELEC-H402 -- Analog Electronics\Labs\Labo 4 - projets\Ampli SC CMOS\


 ****     SMALL SIGNAL BIAS SOLUTION       TEMPERATURE =   27.000 DEG C

 ****     CURRENT STEP                     PARAM RD1 =    7.0000E+03


******************************************************************************



 NODE   VOLTAGE     NODE   VOLTAGE     NODE   VOLTAGE     NODE   VOLTAGE


(   IN)    2.7400  (  OUT)   -4.7245  (  VDD)    5.0000  (  VSS)   -5.0000      

(N23093)   -1.8124 (N276751)    2.7400                   




    VOLTAGE SOURCE CURRENTS
    NAME         CURRENT

    V_V1        -1.244E-03
    V_V2        -1.244E-03
    V_V3         0.000E+00
    V_V4         0.000E+00

    TOTAL POWER DISSIPATION   1.24E-02  WATTS


WARNING(ORPSIM-15193): No AC sources -- AC Sweep ignored

**** 04/21/23 18:17:07 ******* PSpice Lite (March 2016) ******* ID# 10813 ****

 ** Profile: "SCHEMATIC1-dc"  [ D:\Polytech\MA1 2022-2023 ULB\Q2\ELEC-H402 -- Analog Electronics\Labs\Labo 4 - projets\Ampli SC CMOS\


 ****     SMALL SIGNAL BIAS SOLUTION       TEMPERATURE =   27.000 DEG C

 ****     CURRENT STEP                     PARAM RD1 =    7.5000E+03


******************************************************************************



 NODE   VOLTAGE     NODE   VOLTAGE     NODE   VOLTAGE     NODE   VOLTAGE


(   IN)    2.7400  (  OUT)   -4.7154  (  VDD)    5.0000  (  VSS)   -5.0000      

(N23093)   -1.8859 (N276751)    2.7400                   




    VOLTAGE SOURCE CURRENTS
    NAME         CURRENT

    V_V1        -1.189E-03
    V_V2        -1.189E-03
    V_V3         0.000E+00
    V_V4         0.000E+00

    TOTAL POWER DISSIPATION   1.19E-02  WATTS


WARNING(ORPSIM-15193): No AC sources -- AC Sweep ignored

**** 04/21/23 18:17:07 ******* PSpice Lite (March 2016) ******* ID# 10813 ****

 ** Profile: "SCHEMATIC1-dc"  [ D:\Polytech\MA1 2022-2023 ULB\Q2\ELEC-H402 -- Analog Electronics\Labs\Labo 4 - projets\Ampli SC CMOS\


 ****     SMALL SIGNAL BIAS SOLUTION       TEMPERATURE =   27.000 DEG C

 ****     CURRENT STEP                     PARAM RD1 =    8.0000E+03


******************************************************************************



 NODE   VOLTAGE     NODE   VOLTAGE     NODE   VOLTAGE     NODE   VOLTAGE


(   IN)    2.7400  (  OUT)   -4.7065  (  VDD)    5.0000  (  VSS)   -5.0000      

(N23093)   -1.9532 (N276751)    2.7400                   




    VOLTAGE SOURCE CURRENTS
    NAME         CURRENT

    V_V1        -1.140E-03
    V_V2        -1.140E-03
    V_V3         0.000E+00
    V_V4         0.000E+00

    TOTAL POWER DISSIPATION   1.14E-02  WATTS


WARNING(ORPSIM-15193): No AC sources -- AC Sweep ignored

**** 04/21/23 18:17:07 ******* PSpice Lite (March 2016) ******* ID# 10813 ****

 ** Profile: "SCHEMATIC1-dc"  [ D:\Polytech\MA1 2022-2023 ULB\Q2\ELEC-H402 -- Analog Electronics\Labs\Labo 4 - projets\Ampli SC CMOS\


 ****     SMALL SIGNAL BIAS SOLUTION       TEMPERATURE =   27.000 DEG C

 ****     CURRENT STEP                     PARAM RD1 =    8.5000E+03


******************************************************************************



 NODE   VOLTAGE     NODE   VOLTAGE     NODE   VOLTAGE     NODE   VOLTAGE


(   IN)    2.7400  (  OUT)   -4.6977  (  VDD)    5.0000  (  VSS)   -5.0000      

(N23093)   -2.0150 (N276751)    2.7400                   




    VOLTAGE SOURCE CURRENTS
    NAME         CURRENT

    V_V1        -1.096E-03
    V_V2        -1.096E-03
    V_V3         0.000E+00
    V_V4         0.000E+00

    TOTAL POWER DISSIPATION   1.10E-02  WATTS


WARNING(ORPSIM-15193): No AC sources -- AC Sweep ignored

**** 04/21/23 18:17:07 ******* PSpice Lite (March 2016) ******* ID# 10813 ****

 ** Profile: "SCHEMATIC1-dc"  [ D:\Polytech\MA1 2022-2023 ULB\Q2\ELEC-H402 -- Analog Electronics\Labs\Labo 4 - projets\Ampli SC CMOS\


 ****     SMALL SIGNAL BIAS SOLUTION       TEMPERATURE =   27.000 DEG C

 ****     CURRENT STEP                     PARAM RD1 =    9.0000E+03


******************************************************************************



 NODE   VOLTAGE     NODE   VOLTAGE     NODE   VOLTAGE     NODE   VOLTAGE


