
**** 04/21/23 17:55:10 ******* PSpice Lite (March 2016) ******* ID# 10813 ****

 ** Profile: "SCHEMATIC1-dc"  [ D:\Polytech\MA1 2022-2023 ULB\Q2\ELEC-H402 -- Analog Electronics\Labs\Labo 4 - projets\Ampli SC CMOS\


 ****     CIRCUIT DESCRIPTION


******************************************************************************




** Creating circuit file "dc.cir" 
** WARNING: THIS AUTOMATICALLY GENERATED FILE MAY BE OVERWRITTEN BY SUBSEQUENT SIMULATIONS

*Libraries: 
* Profile Libraries :
* Local Libraries :
.LIB "D:/Polytech/MA1 2022-2023 ULB/Q2/ELEC-H402 -- Analog Electronics/Labs/Libraries for ELEC-H402/Libraries for ELEC-H402/ALD.lib"
+ "" 
.LIB "D:/Polytech/MA1 2022-2023 ULB/Q2/ELEC-H402 -- Analog Electronics/Labs/Libraries for ELEC-H402/Libraries for ELEC-H402/ELEC-H4"
+ "02.lib" 
.LIB "D:/Polytech/MA1 2022-2023 ULB/Q2/ELEC-H402 -- Analog Electronics/Labs/Libraries for ELEC-H402/Libraries for ELEC-H402/SEDRA_L"
+ "IB.lib" 
.LIB "D:/Polytech/MA1 2022-2023 ULB/Q2/ELEC-H402 -- Analog Electronics/Labs/Libraries for ELEC-H402/Libraries for ELEC-H402/SMALL_S"
+ "IGNAL.lib" 
* From [PSPICE NETLIST] section of C:\Users\thoma\AppData\Roaming\SPB_Data\cdssetup\OrCAD_PSpice\17.2.0\PSpice.ini file:
.lib "nomd.lib" 

*Analysis directives: 
.AC DEC 100 10 1G
.STEP LIN V_V4 2 3 10m 
.OPTIONS ADVCONV
.PROBE64 V(alias(*)) I(alias(*)) W(alias(*)) D(alias(*)) NOISE(alias(*)) 
.INC "..\SCHEMATIC1.net" 



**** INCLUDING SCHEMATIC1.net ****
* source AMPLI SC CMOS
V_V1         VDD 0 5
V_V2         0 VSS 5
R_RD1         N23093 VDD  {RD1} TC=0,0 
M_M1         N23093 N23093 VSS VSS ncg  
+ L=7.8E-6  
+ W=0.069E-3  
+ AD=0.161E-8  
+ AS=0.603E-8   
+ PS=0.478E-3  
+ NRD=0.3  
+ NRS=1  
+ NRG=25  
+ NRB=35 
M_M2         OUT N23093 VSS VSS ncg  
+ L=7.8E-6  
+ W=0.069E-3  
+ AD=0.161E-8  
+ AS=0.603E-8   
+ PS=0.478E-3  
+ NRD=0.3  
+ NRS=1  
+ NRG=25  
+ NRB=35 
M_M3         OUT IN VDD VDD pcg  
+ L=7.8E-6  
+ W=0.138E-3  
+ AD=0.161E-8  
+ AS=0.603E-8   
+ PS=0.478E-6  
+ NRD=0.3  
+ NRS=1  
+ NRG=25  
+ NRB=35 
V_V3         IN N276751 DC 0Vdc AC 0Vac 
V_V4         N276751 0 {VG}
.PARAM  rd1=33.6k vg=2.74

**** RESUMING dc.cir ****
.END

**** 04/21/23 17:55:10 ******* PSpice Lite (March 2016) ******* ID# 10813 ****

 ** Profile: "SCHEMATIC1-dc"  [ D:\Polytech\MA1 2022-2023 ULB\Q2\ELEC-H402 -- Analog Electronics\Labs\Labo 4 - projets\Ampli SC CMOS\


 ****     MOSFET MODEL PARAMETERS


******************************************************************************




               ncg             pcg             
               NMOS            PMOS            
       LEVEL    2               2            
         TPG                   -1            
           L  100.000000E-06  100.000000E-06 
           W  100.000000E-06  100.000000E-06 
          LD    1.600000E-06  960.000000E-09 
          WD    1.050000E-06  500.000000E-09 
         VTO     .75            -.74         
          KP   40.809880E-06   16.323950E-06 
       GAMMA    1.09             .58         
         PHI     .7              .7          
      LAMBDA    0               0            
         RSH   10              90            
          IS   10.000000E-15   10.000000E-15 
          JS   20.000000E-06   20.000000E-06 
          PB     .9              .9          
        PBSW     .9              .9          
          CJ  390.000000E-06  180.000000E-06 
        CJSW  264.000000E-12  322.000000E-12 
          MJ                     .57         
        MJSW     .18                         
        CGSO  940.000000E-12  310.000000E-12 
        CGDO  590.000000E-12  390.000000E-12 
        CGBO  138.000000E-12  138.000000E-12 
        NSUB   10.000000E+15   10.000000E+15 
         NSS   70.000000E+09  100.000000E+09 
         NFS  117.000000E+09  106.000000E+09 
         TOX   55.000000E-09   55.000000E-09 
          XJ    2.000000E-06    1.200000E-06 
          UO  650             260            
       UCRIT    7.000000E+03   10.000000E+03 
        UEXP     .1              .16         
        VMAX  160.000000E+03  300.000000E+03 
        NEFF   10                            
         XQC     .42             .42         
          KF   75.000000E-30   75.000000E-30 
      DIOMOD    1               1            
         VFB    0               0            
        LETA    0               0            
        WETA    0               0            
          U0    0               0            
        TEMP    0               0            
         VDD    5               5            
       XPART    0               0            


**** 04/21/23 17:55:10 ******* PSpice Lite (March 2016) ******* ID# 10813 ****

 ** Profile: "SCHEMATIC1-dc"  [ D:\Polytech\MA1 2022-2023 ULB\Q2\ELEC-H402 -- Analog Electronics\Labs\Labo 4 - projets\Ampli SC CMOS\


 ****     SMALL SIGNAL BIAS SOLUTION       TEMPERATURE =   27.000 DEG C

 ****     CURRENT STEP                     V_V4 =    2     


******************************************************************************



 NODE   VOLTAGE     NODE   VOLTAGE     NODE   VOLTAGE     NODE   VOLTAGE


(   IN)    2.0000  (  OUT)    4.3875  (  VDD)    5.0000  (  VSS)   -5.0000      

(N23093)   -3.0941 (N276751)    2.0000                   




    VOLTAGE SOURCE CURRENTS
    NAME         CURRENT

    V_V1        -5.148E-04
    V_V2        -5.148E-04
    V_V3         0.000E+00
    V_V4         0.000E+00

    TOTAL POWER DISSIPATION   5.15E-03  WATTS


WARNING(ORPSIM-15193): No AC sources -- AC Sweep ignored

**** 04/21/23 17:55:10 ******* PSpice Lite (March 2016) ******* ID# 10813 ****

 ** Profile: "SCHEMATIC1-dc"  [ D:\Polytech\MA1 2022-2023 ULB\Q2\ELEC-H402 -- Analog Electronics\Labs\Labo 4 - projets\Ampli SC CMOS\


 ****     SMALL SIGNAL BIAS SOLUTION       TEMPERATURE =   27.000 DEG C

 ****     CURRENT STEP                     V_V4 =    2.01  


******************************************************************************



 NODE   VOLTAGE     NODE   VOLTAGE     NODE   VOLTAGE     NODE   VOLTAGE


(   IN)    2.0100  (  OUT)    4.3842  (  VDD)    5.0000  (  VSS)   -5.0000      

(N23093)   -3.0941 (N276751)    2.0100                   




    VOLTAGE SOURCE CURRENTS
    NAME         CURRENT

    V_V1        -5.148E-04
    V_V2        -5.148E-04
    V_V3         0.000E+00
    V_V4         0.000E+00

    TOTAL POWER DISSIPATION   5.15E-03  WATTS


WARNING(ORPSIM-15193): No AC sources -- AC Sweep ignored

**** 04/21/23 17:55:10 ******* PSpice Lite (March 2016) ******* ID# 10813 ****

 ** Profile: "SCHEMATIC1-dc"  [ D:\Polytech\MA1 2022-2023 ULB\Q2\ELEC-H402 -- Analog Electronics\Labs\Labo 4 - projets\Ampli SC CMOS\


 ****     SMALL SIGNAL BIAS SOLUTION       TEMPERATURE =   27.000 DEG C

 ****     CURRENT STEP                     V_V4 =    2.02  


******************************************************************************



 NODE   VOLTAGE     NODE   VOLTAGE     NODE   VOLTAGE     NODE   VOLTAGE


(   IN)    2.0200  (  OUT)    4.3809  (  VDD)    5.0000  (  VSS)   -5.0000      

(N23093)   -3.0941 (N276751)    2.0200                   




    VOLTAGE SOURCE CURRENTS
    NAME         CURRENT

    V_V1        -5.148E-04
    V_V2        -5.148E-04
    V_V3         0.000E+00
    V_V4         0.000E+00

    TOTAL POWER DISSIPATION   5.15E-03  WATTS


WARNING(ORPSIM-15193): No AC sources -- AC Sweep ignored

**** 04/21/23 17:55:10 ******* PSpice Lite (March 2016) ******* ID# 10813 ****

 ** Profile: "SCHEMATIC1-dc"  [ D:\Polytech\MA1 2022-2023 ULB\Q2\ELEC-H402 -- Analog Electronics\Labs\Labo 4 - projets\Ampli SC CMOS\


 ****     SMALL SIGNAL BIAS SOLUTION       TEMPERATURE =   27.000 DEG C

 ****     CURRENT STEP                     V_V4 =    2.03  


******************************************************************************



 NODE   VOLTAGE     NODE   VOLTAGE     NODE   VOLTAGE     NODE   VOLTAGE


(   IN)    2.0300  (  OUT)    4.3774  (  VDD)    5.0000  (  VSS)   -5.0000      

(N23093)   -3.0941 (N276751)    2.0300                   




    VOLTAGE SOURCE CURRENTS
    NAME         CURRENT

    V_V1        -5.148E-04
    V_V2        -5.148E-04
    V_V3         0.000E+00
    V_V4         0.000E+00

    TOTAL POWER DISSIPATION   5.15E-03  WATTS


WARNING(ORPSIM-15193): No AC sources -- AC Sweep ignored

**** 04/21/23 17:55:10 ******* PSpice Lite (March 2016) ******* ID# 10813 ****

 ** Profile: "SCHEMATIC1-dc"  [ D:\Polytech\MA1 2022-2023 ULB\Q2\ELEC-H402 -- Analog Electronics\Labs\Labo 4 - projets\Ampli SC CMOS\


 ****     SMALL SIGNAL BIAS SOLUTION       TEMPERATURE =   27.000 DEG C

 ****     CURRENT STEP                     V_V4 =    2.04  


******************************************************************************



 NODE   VOLTAGE     NODE   VOLTAGE     NODE   VOLTAGE     NODE   VOLTAGE


(   IN)    2.0400  (  OUT)    4.3740  (  VDD)    5.0000  (  VSS)   -5.0000      

(N23093)   -3.0941 (N276751)    2.0400                   




    VOLTAGE SOURCE CURRENTS
    NAME         CURRENT

    V_V1        -5.147E-04
    V_V2        -5.147E-04
    V_V3         0.000E+00
    V_V4         0.000E+00

    TOTAL POWER DISSIPATION   5.15E-03  WATTS


WARNING(ORPSIM-15193): No AC sources -- AC Sweep ignored

**** 04/21/23 17:55:10 ******* PSpice Lite (March 2016) ******* ID# 10813 ****

 ** Profile: "SCHEMATIC1-dc"  [ D:\Polytech\MA1 2022-2023 ULB\Q2\ELEC-H402 -- Analog Electronics\Labs\Labo 4 - projets\Ampli SC CMOS\


 ****     SMALL SIGNAL BIAS SOLUTION       TEMPERATURE =   27.000 DEG C

 ****     CURRENT STEP                     V_V4 =    2.05  


******************************************************************************



 NODE   VOLTAGE     NODE   VOLTAGE     NODE   VOLTAGE     NODE   VOLTAGE


(   IN)    2.0500  (  OUT)    4.3705  (  VDD)    5.0000  (  VSS)   -5.0000      

(N23093)   -3.0941 (N276751)    2.0500                   




    VOLTAGE SOURCE CURRENTS
    NAME         CURRENT

    V_V1        -5.147E-04
    V_V2        -5.147E-04
    V_V3         0.000E+00
    V_V4         0.000E+00

    TOTAL POWER DISSIPATION   5.15E-03  WATTS


WARNING(ORPSIM-15193): No AC sources -- AC Sweep ignored

**** 04/21/23 17:55:10 ******* PSpice Lite (March 2016) ******* ID# 10813 ****

 ** Profile: "SCHEMATIC1-dc"  [ D:\Polytech\MA1 2022-2023 ULB\Q2\ELEC-H402 -- Analog Electronics\Labs\Labo 4 - projets\Ampli SC CMOS\


 ****     SMALL SIGNAL BIAS SOLUTION       TEMPERATURE =   27.000 DEG C

 ****     CURRENT STEP                     V_V4 =    2.06  


******************************************************************************



 NODE   VOLTAGE     NODE   VOLTAGE     NODE   VOLTAGE     NODE   VOLTAGE


(   IN)    2.0600  (  OUT)    4.3669  (  VDD)    5.0000  (  VSS)   -5.0000      

(N23093)   -3.0941 (N276751)    2.0600                   




    VOLTAGE SOURCE CURRENTS
    NAME         CURRENT

    V_V1        -5.147E-04
    V_V2        -5.147E-04
    V_V3         0.000E+00
    V_V4         0.000E+00

    TOTAL POWER DISSIPATION   5.15E-03  WATTS


WARNING(ORPSIM-15193): No AC sources -- AC Sweep ignored

**** 04/21/23 17:55:10 ******* PSpice Lite (March 2016) ******* ID# 10813 ****

 ** Profile: "SCHEMATIC1-dc"  [ D:\Polytech\MA1 2022-2023 ULB\Q2\ELEC-H402 -- Analog Electronics\Labs\Labo 4 - projets\Ampli SC CMOS\


 ****     SMALL SIGNAL BIAS SOLUTION       TEMPERATURE =   27.000 DEG C

 ****     CURRENT STEP                     V_V4 =    2.07  


******************************************************************************



 NODE   VOLTAGE     NODE   VOLTAGE     NODE   VOLTAGE     NODE   VOLTAGE


(   IN)    2.0700  (  OUT)    4.3633  (  VDD)    5.0000  (  VSS)   -5.0000      

(N23093)   -3.0941 (N276751)    2.0700                   




    VOLTAGE SOURCE CURRENTS
    NAME         CURRENT

    V_V1        -5.147E-04
    V_V2        -5.147E-04
    V_V3         0.000E+00
    V_V4         0.000E+00

    TOTAL POWER DISSIPATION   5.15E-03  WATTS


WARNING(ORPSIM-15193): No AC sources -- AC Sweep ignored

**** 04/21/23 17:55:10 ******* PSpice Lite (March 2016) ******* ID# 10813 ****

 ** Profile: "SCHEMATIC1-dc"  [ D:\Polytech\MA1 2022-2023 ULB\Q2\ELEC-H402 -- Analog Electronics\Labs\Labo 4 - projets\Ampli SC CMOS\


 ****     SMALL SIGNAL BIAS SOLUTION       TEMPERATURE =   27.000 DEG C

 ****     CURRENT STEP                     V_V4 =    2.08  


******************************************************************************



 NODE   VOLTAGE     NODE   VOLTAGE     NODE   VOLTAGE     NODE   VOLTAGE


(   IN)    2.0800  (  OUT)    4.3596  (  VDD)    5.0000  (  VSS)   -5.0000      

(N23093)   -3.0941 (N276751)    2.0800                   




    VOLTAGE SOURCE CURRENTS
    NAME         CURRENT

    V_V1        -5.147E-04
    V_V2        -5.147E-04
    V_V3         0.000E+00
    V_V4         0.000E+00

    TOTAL POWER DISSIPATION   5.15E-03  WATTS


WARNING(ORPSIM-15193): No AC sources -- AC Sweep ignored

**** 04/21/23 17:55:10 ******* PSpice Lite (March 2016) ******* ID# 10813 ****

 ** Profile: "SCHEMATIC1-dc"  [ D:\Polytech\MA1 2022-2023 ULB\Q2\ELEC-H402 -- Analog Electronics\Labs\Labo 4 - projets\Ampli SC CMOS\


 ****     SMALL SIGNAL BIAS SOLUTION       TEMPERATURE =   27.000 DEG C

 ****     CURRENT STEP                     V_V4 =    2.09  


******************************************************************************



 NODE   VOLTAGE     NODE   VOLTAGE     NODE   VOLTAGE     NODE   VOLTAGE


(   IN)    2.0900  (  OUT)    4.3558  (  VDD)    5.0000  (  VSS)   -5.0000      

(N23093)   -3.0941 (N276751)    2.0900                   




    VOLTAGE SOURCE CURRENTS
    NAME         CURRENT

    V_V1        -5.147E-04
    V_V2        -5.147E-04
    V_V3         0.000E+00
    V_V4         0.000E+00

    TOTAL POWER DISSIPATION   5.15E-03  WATTS


WARNING(ORPSIM-15193): No AC sources -- AC Sweep ignored

**** 04/21/23 17:55:10 ******* PSpice Lite (March 2016) ******* ID# 10813 ****

 ** Profile: "SCHEMATIC1-dc"  [ D:\Polytech\MA1 2022-2023 ULB\Q2\ELEC-H402 -- Analog Electronics\Labs\Labo 4 - projets\Ampli SC CMOS\


 ****     SMALL SIGNAL BIAS SOLUTION       TEMPERATURE =   27.000 DEG C

 ****     CURRENT STEP                     V_V4 =    2.1   


******************************************************************************



 NODE   VOLTAGE     NODE   VOLTAGE     NODE   VOLTAGE     NODE   VOLTAGE


(   IN)    2.1000  (  OUT)    4.3520  (  VDD)    5.0000  (  VSS)   -5.0000      

(N23093)   -3.0941 (N276751)    2.1000                   




    VOLTAGE SOURCE CURRENTS
    NAME         CURRENT

    V_V1        -5.147E-04
    V_V2        -5.147E-04
    V_V3         0.000E+00
    V_V4         0.000E+00

    TOTAL POWER DISSIPATION   5.15E-03  WATTS


WARNING(ORPSIM-15193): No AC sources -- AC Sweep ignored

**** 04/21/23 17:55:10 ******* PSpice Lite (March 2016) ******* ID# 10813 ****

 ** Profile: "SCHEMATIC1-dc"  [ D:\Polytech\MA1 2022-2023 ULB\Q2\ELEC-H402 -- Analog Electronics\Labs\Labo 4 - projets\Ampli SC CMOS\


 ****     SMALL SIGNAL BIAS SOLUTION       TEMPERATURE =   27.000 DEG C

 ****     CURRENT STEP                     V_V4 =    2.11  


******************************************************************************



 NODE   VOLTAGE     NODE   VOLTAGE     NODE   VOLTAGE     NODE   VOLTAGE


(   IN)    2.1100  (  OUT)    4.3481  (  VDD)    5.0000  (  VSS)   -5.0000      

(N23093)   -3.0941 (N276751)    2.1100                   




    VOLTAGE SOURCE CURRENTS
    NAME         CURRENT

    V_V1        -5.147E-04
    V_V2        -5.147E-04
    V_V3         0.000E+00
    V_V4         0.000E+00

    TOTAL POWER DISSIPATION   5.15E-03  WATTS


WARNING(ORPSIM-15193): No AC sources -- AC Sweep ignored

**** 04/21/23 17:55:10 ******* PSpice Lite (March 2016) ******* ID# 10813 ****

 ** Profile: "SCHEMATIC1-dc"  [ D:\Polytech\MA1 2022-2023 ULB\Q2\ELEC-H402 -- Analog Electronics\Labs\Labo 4 - projets\Ampli SC CMOS\


 ****     SMALL SIGNAL BIAS SOLUTION       TEMPERATURE =   27.000 DEG C

 ****     CURRENT STEP                     V_V4 =    2.12  


******************************************************************************



 NODE   VOLTAGE     NODE   VOLTAGE     NODE   VOLTAGE     NODE   VOLTAGE


(   IN)    2.1200  (  OUT)    4.3442  (  VDD)    5.0000  (  VSS)   -5.0000      

(N23093)   -3.0941 (N276751)    2.1200                   




    VOLTAGE SOURCE CURRENTS
    NAME         CURRENT

    V_V1        -5.146E-04
    V_V2        -5.146E-04
    V_V3         0.000E+00
    V_V4         0.000E+00

    TOTAL POWER DISSIPATION   5.15E-03  WATTS


WARNING(ORPSIM-15193): No AC sources -- AC Sweep ignored

**** 04/21/23 17:55:10 ******* PSpice Lite (March 2016) ******* ID# 10813 ****

 ** Profile: "SCHEMATIC1-dc"  [ D:\Polytech\MA1 2022-2023 ULB\Q2\ELEC-H402 -- Analog Electronics\Labs\Labo 4 - projets\Ampli SC CMOS\


 ****     SMALL SIGNAL BIAS SOLUTION       TEMPERATURE =   27.000 DEG C

 ****     CURRENT STEP                     V_V4 =    2.13  


******************************************************************************



 NODE   VOLTAGE     NODE   VOLTAGE     NODE   VOLTAGE     NODE   VOLTAGE


(   IN)    2.1300  (  OUT)    4.3401  (  VDD)    5.0000  (  VSS)   -5.0000      

(N23093)   -3.0941 (N276751)    2.1300                   




    VOLTAGE SOURCE CURRENTS
    NAME         CURRENT

    V_V1        -5.146E-04
    V_V2        -5.146E-04
    V_V3         0.000E+00
    V_V4         0.000E+00

    TOTAL POWER DISSIPATION   5.15E-03  WATTS


WARNING(ORPSIM-15193): No AC sources -- AC Sweep ignored

**** 04/21/23 17:55:10 ******* PSpice Lite (March 2016) ******* ID# 10813 ****

 ** Profile: "SCHEMATIC1-dc"  [ D:\Polytech\MA1 2022-2023 ULB\Q2\ELEC-H402 -- Analog Electronics\Labs\Labo 4 - projets\Ampli SC CMOS\


 ****     SMALL SIGNAL BIAS SOLUTION       TEMPERATURE =   27.000 DEG C

 ****     CURRENT STEP                     V_V4 =    2.14  


******************************************************************************



 NODE   VOLTAGE     NODE   VOLTAGE     NODE   VOLTAGE     NODE   VOLTAGE


(   IN)    2.1400  (  OUT)    4.3360  (  VDD)    5.0000  (  VSS)   -5.0000      

(N23093)   -3.0941 (N276751)    2.1400                   




    VOLTAGE SOURCE CURRENTS
    NAME         CURRENT

    V_V1        -5.146E-04
    V_V2        -5.146E-04
    V_V3         0.000E+00
    V_V4         0.000E+00

    TOTAL POWER DISSIPATION   5.15E-03  WATTS


WARNING(ORPSIM-15193): No AC sources -- AC Sweep ignored

**** 04/21/23 17:55:10 ******* PSpice Lite (March 2016) ******* ID# 10813 ****

 ** Profile: "SCHEMATIC1-dc"  [ D:\Polytech\MA1 2022-2023 ULB\Q2\ELEC-H402 -- Analog Electronics\Labs\Labo 4 - projets\Ampli SC CMOS\


 ****     SMALL SIGNAL BIAS SOLUTION       TEMPERATURE =   27.000 DEG C

 ****     CURRENT STEP                     V_V4 =    2.15  


******************************************************************************



 NODE   VOLTAGE     NODE   VOLTAGE     NODE   VOLTAGE     NODE   VOLTAGE


(   IN)    2.1500  (  OUT)    4.3319  (  VDD)    5.0000  (  VSS)   -5.0000      

(N23093)   -3.0941 (N276751)    2.1500                   




    VOLTAGE SOURCE CURRENTS
    NAME         CURRENT

    V_V1        -5.146E-04
    V_V2        -5.146E-04
    V_V3         0.000E+00
    V_V4         0.000E+00

    TOTAL POWER DISSIPATION   5.15E-03  WATTS


WARNING(ORPSIM-15193): No AC sources -- AC Sweep ignored

**** 04/21/23 17:55:10 ******* PSpice Lite (March 2016) ******* ID# 10813 ****

 ** Profile: "SCHEMATIC1-dc"  [ D:\Polytech\MA1 2022-2023 ULB\Q2\ELEC-H402 -- Analog Electronics\Labs\Labo 4 - projets\Ampli SC CMOS\


 ****     SMALL SIGNAL BIAS SOLUTION       TEMPERATURE =   27.000 DEG C

 ****     CURRENT STEP                     V_V4 =    2.16  


******************************************************************************



 NODE   VOLTAGE     NODE   VOLTAGE     NODE   VOLTAGE     NODE   VOLTAGE


(   IN)    2.1600  (  OUT)    4.3276  (  VDD)    5.0000  (  VSS)   -5.0000      

(N23093)   -3.0941 (N276751)    2.1600                   




